
**** 10/10/14 09:37:07 ******* PSpice Lite (April 2011) ******* ID# 10813 ****

 Name: Sean Basler  Problem:3  Experiment: 3 ;Title


 ****     CIRCUIT DESCRIPTION


******************************************************************************



V1 5 0 DC 50 ;Voltage Source
R1 5 4 10        ; 10 ohm Resistor in circuit
R2 5 2 90        ; 90 ohm Resistor in circuit
R3 4 6 90        ; 90 ohm Resistor in dummy node for the dummy voltage 
R4 1 2 30        ; 30 ohm Resistor in circuit
R5 2 3 30        ; 30 ohm Resistor in circuit
R6 1 0 10        ; 10 ohm Resistor in circuit
R7 3 0 90        ; 90 ohm Resistor in circuit
VD1 6 1 DC 0 ;Dummy used to detect current between 4 and 1
H1 4 3 VD1 30;implementation of current dependent voltage source
.OP
.END

**** 10/10/14 09:37:07 ******* PSpice Lite (April 2011) ******* ID# 10813 ****

 Name: Sean Basler  Problem:3  Experiment: 3 ;Title


 ****     SMALL SIGNAL BIAS SOLUTION       TEMPERATURE =   27.000 DEG C


******************************************************************************



 NODE   VOLTAGE     NODE   VOLTAGE     NODE   VOLTAGE     NODE   VOLTAGE


(    1)    8.6339  (    2)   23.7700  (    3)   30.1640  (    4)   40.9290      

(    5)   50.0000  (    6)    8.6339  




    VOLTAGE SOURCE CURRENTS
    NAME         CURRENT

    V1          -1.199E+00
    VD1          3.588E-01

    TOTAL POWER DISSIPATION   5.99E+01  WATTS


**** 10/10/14 09:37:07 ******* PSpice Lite (April 2011) ******* ID# 10813 ****

 Name: Sean Basler  Problem:3  Experiment: 3 ;Title


 ****     OPERATING POINT INFORMATION      TEMPERATURE =   27.000 DEG C


******************************************************************************






**** CURRENT-CONTROLLED VOLTAGE SOURCES


NAME         H1        
V-SOURCE     1.077E+01
I-SOURCE     5.483E-01

          JOB CONCLUDED

**** 10/10/14 09:37:07 ******* PSpice Lite (April 2011) ******* ID# 10813 ****

 Name: Sean Basler  Problem:3  Experiment: 3 ;Title


 ****     JOB STATISTICS SUMMARY


******************************************************************************



  Total job time (using Solver 1)   =        0.00
